  can0  0CF11F05   [8]  02 41 1E 00 09 00 00 00
  can0  0CF11E05   [8]  00 00 00 00 75 03 00 00
  can0  0CF11F05   [8]  02 41 1E 00 01 00 00 00
  can0  0CF11E05   [8]  00 00 00 00 75 03 00 00
  can0  0CF11F05   [8]  02 41 1E 00 01 00 00 00
  can0  0CF11E05   [8]  0A 00 00 00 75 03 00 00
  can0  0CF11F05   [8]  02 41 1E 00 01 00 00 00
  can0  0CF11E05   [8]  00 00 00 00 75 03 00 00
  can0  0CF11F05   [8]  02 41 1E 00 01 00 00 00
  can0  0CF11E05   [8]  00 00 00 00 75 03 00 00
  can0  0CF11F05   [8]  02 41 1E 00 09 00 00 00
  can0  0CF11E05   [8]  00 00 00 00 75 03 00 00
  can0  0CF11F05   [8]  02 41 1E 00 01 00 00 00
  can0  0CF11E05   [8]  05 00 00 00 75 03 00 00
  can0  0CF11F05   [8]  02 41 1E 00 01 00 00 00
  can0  0CF11E05   [8]  00 00 00 00 75 03 00 00
  can0  0CF11F05   [8]  02 41 1E 00 01 00 00 00
  can0  0CF11E05   [8]  00 00 00 00 75 03 00 00
  can0  0CF11F05   [8]  02 41 1E 00 01 00 00 00
  can0  0CF11E05   [8]  00 00 00 00 75 03 00 00
  can0  0CF11F05   [8]  02 41 1E 00 01 00 00 00
  can0  0CF11E05   [8]  00 00 00 00 75 03 00 00
  can0  0CF11F05   [8]  02 41 1E 00 01 00 00 00
  can0  0CF11E05   [8]  00 00 00 00 75 03 00 00
  can0  0CF11F05   [8]  02 41 1E 00 01 00 00 00
  can0  0CF11E05   [8]  00 00 00 00 75 03 00 00
  can0  0CF11F05   [8]  02 41 1E 00 09 00 00 00
  can0  0CF11E05   [8]  00 00 00 00 75 03 00 00
  can0  0CF11F05   [8]  02 41 1E 00 01 00 00 00
  can0  0CF11E05   [8]  00 00 00 00 75 03 00 00
  can0  0CF11F05   [8]  02 41 1E 00 01 40 00 00
  can0  0CF11E05   [8]  02 00 00 00 75 03 00 00
  can0  0CF11F05   [8]  21 41 1E 00 05 40 00 00
  can0  0CF11E05   [8]  2C 00 0E 00 75 03 00 00
  can0  0CF11F05   [8]  39 41 1E 00 05 40 00 00
  can0  0CF11E05   [8]  74 01 35 00 68 03 00 00
  can0  0CF11F05   [8]  3A 41 1E 00 05 40 00 00
  can0  0CF11E05   [8]  25 03 1B 01 60 03 00 00
  can0  0CF11F05   [8]  39 41 1E 00 05 40 00 00
  can0  0CF11E05   [8]  06 05 24 01 66 03 00 00
  can0  0CF11F05   [8]  38 41 1E 00 05 40 00 00
  can0  0CF11E05   [8]  BD 05 94 00 68 03 00 00
  can0  0CF11F05   [8]  39 41 1E 00 05 40 00 00
  can0  0CF11E05   [8]  B0 05 B4 00 60 03 00 00
  can0  0CF11F05   [8]  38 41 1E 00 05 40 00 00
  can0  0CF11E05   [8]  EC 05 4F 01 6C 03 00 00
  can0  0CF11F05   [8]  37 41 1E 00 05 40 00 00
  can0  0CF11E05   [8]  F5 06 F2 00 71 03 00 00
  can0  0CF11F05   [8]  37 41 1E 00 05 40 00 00
  can0  0CF11E05   [8]  6B 06 02 01 68 03 00 00
  can0  0CF11F05   [8]  37 41 1E 00 05 40 00 00
  can0  0CF11E05   [8]  BF 06 DE 00 77 03 00 00
  can0  0CF11F05   [8]  36 41 1E 00 05 40 00 00
  can0  0CF11E05   [8]  C9 06 83 00 6B 03 00 00
  can0  0CF11F05   [8]  32 41 1E 00 05 40 00 00
  can0  0CF11E05   [8]  64 06 89 00 75 03 00 00
  can0  0CF11F05   [8]  31 41 1E 00 05 40 00 00
  can0  0CF11E05   [8]  12 07 AE 00 71 03 00 00
  can0  0CF11F05   [8]  2B 41 1E 00 05 40 00 00
  can0  0CF11E05   [8]  20 06 C5 00 73 03 00 00
  can0  0CF11F05   [8]  21 41 1E 00 05 40 00 00
  can0  0CF11E05   [8]  80 06 1E 00 79 03 00 00
  can0  0CF11F05   [8]  0E 41 1E 00 05 40 00 00
  can0  0CF11E05   [8]  37 06 20 00 74 03 00 00
  can0  0CF11F05   [8]  02 41 1E 00 05 40 00 00
  can0  0CF11E05   [8]  71 05 96 00 75 03 00 00
  can0  0CF11F05   [8]  02 41 1E 00 05 40 00 00
  can0  0CF11E05   [8]  23 05 9D 00 77 03 00 00
  can0  0CF11F05   [8]  02 41 1E 00 05 40 00 00
  can0  0CF11E05   [8]  E2 04 4B 00 79 03 00 00
  can0  0CF11F05   [8]  02 41 1E 00 05 40 00 00
  can0  0CF11E05   [8]  DD 04 42 00 79 03 00 00
  can0  0CF11F05   [8]  02 41 1E 00 05 40 00 00
  can0  0CF11E05   [8]  9C 04 35 00 79 03 00 00
  can0  0CF11F05   [8]  06 41 1E 00 05 40 00 00
  can0  0CF11E05   [8]  FD 03 35 00 77 03 00 00
  can0  0CF11F05   [8]  08 41 1E 00 05 40 00 00
  can0  0CF11E05   [8]  B1 03 04 00 75 03 00 00
  can0  0CF11F05   [8]  0A 41 1E 00 05 40 00 00
  can0  0CF11E05   [8]  A4 03 04 00 75 03 00 00
  can0  0CF11F05   [8]  0D 41 1E 00 05 40 00 00
  can0  0CF11E05   [8]  63 03 3E 00 74 03 00 00
  can0  0CF11F05   [8]  19 41 1E 00 05 40 00 00
  can0  0CF11E05   [8]  DE 03 34 00 74 03 00 00
  can0  0CF11F05   [8]  36 41 1E 00 05 40 00 00
  can0  0CF11E05   [8]  1F 03 53 00 6D 03 00 00
  can0  0CF11F05   [8]  51 41 1E 00 05 40 00 00
  can0  0CF11E05   [8]  6F 04 7F 00 59 03 00 00
  can0  0CF11F05   [8]  5A 41 1E 00 05 40 00 00
  can0  0CF11E05   [8]  EC 05 50 03 51 03 00 00
  can0  0CF11F05   [8]  5F 41 1E 00 05 40 00 00
  can0  0CF11E05   [8]  09 08 27 03 52 03 00 00
  can0  0CF11F05   [8]  61 41 1E 00 05 40 00 00
  can0  0CF11E05   [8]  2D 09 C2 01 53 03 00 00
  can0  0CF11F05   [8]  66 41 1E 00 05 40 00 00
  can0  0CF11E05   [8]  10 0A FC 01 52 03 00 00
  can0  0CF11F05   [8]  70 41 1E 00 05 40 00 00
  can0  0CF11E05   [8]  F5 0A 4C 02 4F 03 00 00
  can0  0CF11F05   [8]  7E 41 1E 00 05 40 00 00
  can0  0CF11E05   [8]  1F 0B 4E 03 48 03 00 00
  can0  0CF11F05   [8]  8B 41 1E 00 05 40 00 00
  can0  0CF11E05   [8]  F6 0C 4E 03 33 03 00 00
  can0  0CF11F05   [8]  93 41 1E 00 05 40 00 00
  can0  0CF11E05   [8]  0F 0E 8A 03 22 03 00 00
  can0  0CF11F05   [8]  94 41 1E 00 05 40 00 00
  can0  0CF11E05   [8]  30 0F E4 04 24 03 00 00
  can0  0CF11F05   [8]  92 41 1E 00 05 40 00 00
  can0  0CF11E05   [8]  83 10 A1 03 43 03 00 00
  can0  0CF11F05   [8]  8E 41 1E 00 05 40 00 00
  can0  0CF11E05   [8]  D6 10 2F 06 2F 03 00 00
  can0  0CF11F05   [8]  89 41 1E 00 05 40 00 00
  can0  0CF11E05   [8]  68 11 AF 04 84 03 00 00
  can0  0CF11F05   [8]  82 41 1E 00 05 40 00 00
  can0  0CF11E05   [8]  99 11 9A 01 57 03 00 00
  can0  0CF11F05   [8]  7B 41 1E 00 05 40 00 00
  can0  0CF11E05   [8]  43 11 DF 01 53 03 00 00
  can0  0CF11F05   [8]  77 41 1E 00 05 40 00 00
  can0  0CF11E05   [8]  12 11 57 03 6B 03 00 00
  can0  0CF11F05   [8]  72 41 1E 00 05 40 00 00
  can0  0CF11E05   [8]  60 11 D5 02 75 03 00 00
  can0  0CF11F05   [8]  69 41 1E 00 05 40 00 00
  can0  0CF11E05   [8]  7D 10 0D 03 62 03 00 00
  can0  0CF11F05   [8]  5D 41 1E 00 05 40 00 00
  can0  0CF11E05   [8]  70 10 1B 02 80 03 00 00
  can0  0CF11F05   [8]  56 41 1E 00 05 40 00 00
  can0  0CF11E05   [8]  AD 0F 6A 03 68 03 00 00
  can0  0CF11F05   [8]  57 41 1E 00 05 40 00 00
  can0  0CF11E05   [8]  30 0F E3 03 6F 03 00 00
  can0  0CF11F05   [8]  58 41 1E 00 05 40 00 00
  can0  0CF11E05   [8]  DF 0E 08 03 71 03 00 00
  can0  0CF11F05   [8]  57 41 1E 00 05 40 00 00
  can0  0CF11E05   [8]  65 0E 48 02 80 03 00 00
  can0  0CF11F05   [8]  56 41 1E 00 05 40 00 00
  can0  0CF11E05   [8]  07 0E 7E 00 81 03 00 00
  can0  0CF11F05   [8]  57 41 1E 00 05 40 00 00
  can0  0CF11E05   [8]  92 0D 89 00 7C 03 00 00
  can0  0CF11F05   [8]  57 41 1E 00 05 40 00 00
  can0  0CF11E05   [8]  1F 0D D4 03 6F 03 00 00
  can0  0CF11F05   [8]  57 41 1E 00 05 40 00 00
  can0  0CF11E05   [8]  2F 0D AE 03 6D 03 00 00
  can0  0CF11F05   [8]  57 41 1E 00 05 40 00 00
  can0  0CF11E05   [8]  BF 0C B6 00 69 03 00 00
  can0  0CF11F05   [8]  55 41 1E 00 05 40 00 00
  can0  0CF11E05   [8]  79 0C 86 00 83 03 00 00
  can0  0CF11F05   [8]  50 41 1E 00 05 40 00 00
  can0  0CF11E05   [8]  45 0C 65 02 6C 03 00 00
  can0  0CF11F05   [8]  4A 41 1E 00 05 40 00 00
  can0  0CF11E05   [8]  06 0C B4 01 71 03 00 00
  can0  0CF11F05   [8]  43 41 1E 00 05 40 00 00
  can0  0CF11E05   [8]  4B 0B BE 02 6D 03 00 00
  can0  0CF11F05   [8]  3A 41 1E 00 05 40 00 00
  can0  0CF11E05   [8]  67 0B D2 01 7F 03 00 00
  can0  0CF11F05   [8]  34 41 1E 00 05 40 00 00
  can0  0CF11E05   [8]  21 0B CF 00 6D 03 00 00
  can0  0CF11F05   [8]  2B 41 1E 00 05 40 00 00
  can0  0CF11E05   [8]  F5 09 EA 00 73 03 00 00
  can0  0CF11F05   [8]  27 41 1E 00 05 40 00 00
  can0  0CF11E05   [8]  A5 09 D0 01 79 03 00 00
  can0  0CF11F05   [8]  24 41 1E 00 05 40 00 00
  can0  0CF11E05   [8]  BA 09 6D 01 7F 03 00 00
  can0  0CF11F05   [8]  23 41 1E 00 05 40 00 00
  can0  0CF11E05   [8]  6E 09 BF 00 7F 03 00 00
  can0  0CF11F05   [8]  1F 41 1E 00 05 40 00 00
  can0  0CF11E05   [8]  CD 08 D3 00 7B 03 00 00
  can0  0CF11F05   [8]  17 41 1E 00 05 40 00 00
  can0  0CF11E05   [8]  0F 08 83 01 75 03 00 00
  can0  0CF11F05   [8]  15 41 1E 00 05 40 00 00
  can0  0CF11E05   [8]  04 08 50 01 73 03 00 00
  can0  0CF11F05   [8]  17 41 1E 00 05 40 00 00
  can0  0CF11E05   [8]  52 08 C4 00 70 03 00 00
  can0  0CF11F05   [8]  1E 41 1E 00 05 40 00 00
  can0  0CF11E05   [8]  8C 07 C2 00 78 03 00 00
  can0  0CF11F05   [8]  24 41 1E 00 05 40 00 00
  can0  0CF11E05   [8]  1F 07 26 00 73 03 00 00
  can0  0CF11F05   [8]  25 41 1E 00 05 40 00 00
  can0  0CF11E05   [8]  31 07 1F 00 78 03 00 00
  can0  0CF11F05   [8]  28 41 1E 00 05 40 00 00
  can0  0CF11E05   [8]  85 06 28 00 71 03 00 00
  can0  0CF11F05   [8]  2D 41 1E 00 05 40 00 00
  can0  0CF11E05   [8]  13 06 2A 00 77 03 00 00
  can0  0CF11F05   [8]  33 41 1E 00 05 40 00 00
  can0  0CF11E05   [8]  BC 06 7E 00 71 03 00 00
  can0  0CF11F05   [8]  3C 41 1E 00 05 40 00 00
  can0  0CF11E05   [8]  03 06 9C 00 65 03 00 00
  can0  0CF11F05   [8]  48 41 1E 00 05 40 00 00
  can0  0CF11E05   [8]  7B 06 5E 01 68 03 00 00
  can0  0CF11F05   [8]  4B 41 1E 00 05 40 00 00
  can0  0CF11E05   [8]  7F 07 80 01 5D 03 00 00
  can0  0CF11F05   [8]  49 41 1E 00 05 40 00 00
  can0  0CF11E05   [8]  21 08 03 01 6D 03 00 00
  can0  0CF11F05   [8]  48 41 1E 00 05 40 00 00
  can0  0CF11E05   [8]  B6 07 B2 01 64 03 00 00
  can0  0CF11F05   [8]  49 41 1E 00 05 40 00 00
  can0  0CF11E05   [8]  29 08 1B 00 66 03 00 00
  can0  0CF11F05   [8]  49 41 1E 00 05 40 00 00
  can0  0CF11E05   [8]  E4 08 18 00 69 03 00 00
  can0  0CF11F05   [8]  46 41 1E 00 05 40 00 00
  can0  0CF11E05   [8]  F1 08 8A 00 6F 03 00 00
  can0  0CF11F05   [8]  42 41 1E 00 05 40 00 00
  can0  0CF11E05   [8]  C7 08 78 00 78 03 00 00
  can0  0CF11F05   [8]  42 41 1E 00 05 40 00 00
  can0  0CF11E05   [8]  33 08 48 01 73 03 00 00
  can0  0CF11F05   [8]  43 41 1E 00 05 40 00 00
  can0  0CF11E05   [8]  FC 07 65 01 65 03 00 00
  can0  0CF11F05   [8]  43 41 1E 00 05 40 00 00
  can0  0CF11E05   [8]  91 08 47 01 69 03 00 00
  can0  0CF11F05   [8]  42 41 1E 00 05 40 00 00
  can0  0CF11E05   [8]  B5 08 19 01 6D 03 00 00
  can0  0CF11F05   [8]  42 41 1E 00 05 40 00 00
  can0  0CF11E05   [8]  86 08 7D 00 79 03 00 00
  can0  0CF11F05   [8]  42 41 1E 00 05 40 00 00
  can0  0CF11E05   [8]  D8 07 C4 00 6C 03 00 00
  can0  0CF11F05   [8]  42 41 1E 00 05 40 00 00
  can0  0CF11E05   [8]  02 08 77 00 66 03 00 00
  can0  0CF11F05   [8]  42 41 1E 00 05 40 00 00
  can0  0CF11E05   [8]  A5 08 74 00 6D 03 00 00
  can0  0CF11F05   [8]  42 41 1E 00 05 40 00 00
  can0  0CF11E05   [8]  81 08 82 00 74 03 00 00
  can0  0CF11F05   [8]  42 41 1E 00 05 40 00 00
  can0  0CF11E05   [8]  E2 07 B4 00 71 03 00 00
  can0  0CF11F05   [8]  42 41 1E 00 05 40 00 00
  can0  0CF11E05   [8]  D5 07 06 01 66 03 00 00
  can0  0CF11F05   [8]  42 41 1E 00 05 40 00 00
  can0  0CF11E05   [8]  86 08 F5 00 6B 03 00 00
  can0  0CF11F05   [8]  42 41 1E 00 05 40 00 00
  can0  0CF11E05   [8]  74 08 84 00 74 03 00 00
  can0  0CF11F05   [8]  42 41 1E 00 05 40 00 00
  can0  0CF11E05   [8]  C8 07 BB 00 70 03 00 00
  can0  0CF11F05   [8]  42 41 1E 00 05 40 00 00
  can0  0CF11E05   [8]  DD 07 7F 00 66 03 00 00
  can0  0CF11F05   [8]  42 41 1E 00 05 40 00 00
  can0  0CF11E05   [8]  81 08 79 00 6C 03 00 00
  can0  0CF11F05   [8]  42 41 1E 00 05 40 00 00
  can0  0CF11E05   [8]  5F 08 94 00 77 03 00 00
  can0  0CF11F05   [8]  42 41 1E 00 05 40 00 00
  can0  0CF11E05   [8]  A6 07 D8 00 6C 03 00 00
  can0  0CF11F05   [8]  42 41 1E 00 05 40 00 00
  can0  0CF11E05   [8]  01 08 40 00 68 03 00 00
  can0  0CF11F05   [8]  42 41 1E 00 05 40 00 00
  can0  0CF11E05   [8]  7E 08 37 00 6D 03 00 00
  can0  0CF11F05   [8]  42 41 1E 00 05 40 00 00
  can0  0CF11E05   [8]  48 08 88 00 78 03 00 00
  can0  0CF11F05   [8]  42 41 1E 00 05 40 00 00
  can0  0CF11E05   [8]  97 07 C9 00 66 03 00 00
  can0  0CF11F05   [8]  42 41 1E 00 05 40 00 00
  can0  0CF11E05   [8]  40 08 3B 01 69 03 00 00
  can0  0CF11F05   [8]  42 41 1E 00 05 40 00 00
  can0  0CF11E05   [8]  6F 08 EE 00 70 03 00 00
  can0  0CF11F05   [8]  42 41 1E 00 05 40 00 00
  can0  0CF11E05   [8]  DD 07 0B 01 71 03 00 00
  can0  0CF11F05   [8]  42 41 1E 00 05 40 00 00
  can0  0CF11E05   [8]  B8 07 1E 01 66 03 00 00
  can0  0CF11F05   [8]  42 41 1E 00 05 40 00 00
  can0  0CF11E05   [8]  6C 08 FB 00 6C 03 00 00
  can0  0CF11F05   [8]  42 41 1E 00 05 40 00 00
  can0  0CF11E05   [8]  4A 08 BC 00 77 03 00 00
  can0  0CF11F05   [8]  42 41 1E 00 05 40 00 00
  can0  0CF11E05   [8]  94 07 BF 01 6B 03 00 00
  can0  0CF11F05   [8]  42 41 1E 00 05 40 00 00
  can0  0CF11E05   [8]  1E 08 91 01 68 03 00 00
  can0  0CF11F05   [8]  42 41 1E 00 05 40 00 00
  can0  0CF11E05   [8]  7F 08 66 00 6F 03 00 00
  can0  0CF11F05   [8]  42 41 1E 00 05 40 00 00
  can0  0CF11E05   [8]  2B 08 63 00 75 03 00 00
  can0  0CF11F05   [8]  42 41 1E 00 05 40 00 00
  can0  0CF11E05   [8]  A1 07 87 01 66 03 00 00
  can0  0CF11F05   [8]  42 41 1E 00 05 40 00 00
  can0  0CF11E05   [8]  62 08 68 01 6B 03 00 00
  can0  0CF11F05   [8]  42 41 1E 00 05 40 00 00
  can0  0CF11E05   [8]  5F 08 7D 00 71 03 00 00
  can0  0CF11F05   [8]  42 41 1E 00 05 40 00 00
  can0  0CF11E05   [8]  B1 07 BB 00 6F 03 00 00
  can0  0CF11F05   [8]  42 41 1E 00 05 40 00 00
  can0  0CF11E05   [8]  D5 07 6C 00 66 03 00 00
  can0  0CF11F05   [8]  42 41 1E 00 05 40 00 00
  can0  0CF11E05   [8]  72 08 5C 00 6D 03 00 00
  can0  0CF11F05   [8]  42 41 1E 00 05 40 00 00
  can0  0CF11E05   [8]  40 08 8D 00 78 03 00 00
  can0  0CF11F05   [8]  42 41 1E 00 05 40 00 00
  can0  0CF11E05   [8]  94 07 CC 00 69 03 00 00
  can0  0CF11F05   [8]  42 41 1E 00 05 40 00 00
  can0  0CF11E05   [8]  2E 08 EF 00 69 03 00 00
  can0  0CF11F05   [8]  42 41 1E 00 05 40 00 00
  can0  0CF11E05   [8]  6F 08 C1 00 6F 03 00 00
  can0  0CF11F05   [8]  42 41 1E 00 05 40 00 00
  can0  0CF11E05   [8]  FA 07 C6 00 71 03 00 00
  can0  0CF11F05   [8]  42 41 1E 00 05 40 00 00
  can0  0CF11E05   [8]  AB 07 DD 00 64 03 00 00
  can0  0CF11F05   [8]  42 41 1E 00 05 40 00 00
  can0  0CF11E05   [8]  6A 08 FE 00 6B 03 00 00
  can0  0CF11F05   [8]  42 41 1E 00 05 40 00 00
  can0  0CF11E05   [8]  52 08 B7 00 75 03 00 00
  can0  0CF11F05   [8]  42 41 1E 00 05 40 00 00
  can0  0CF11E05   [8]  A1 07 A0 01 6B 03 00 00
  can0  0CF11F05   [8]  42 41 1E 00 05 40 00 00
  can0  0CF11E05   [8]  EF 07 88 01 68 03 00 00
  can0  0CF11F05   [8]  42 41 1E 00 05 40 00 00
  can0  0CF11E05   [8]  7E 08 75 00 6D 03 00 00
  can0  0CF11F05   [8]  42 41 1E 00 05 40 00 00
  can0  0CF11E05   [8]  38 08 69 00 77 03 00 00
  can0  0CF11F05   [8]  42 41 1E 00 05 40 00 00
  can0  0CF11E05   [8]  96 07 80 01 66 03 00 00
  can0  0CF11F05   [8]  42 41 1E 00 05 40 00 00
  can0  0CF11E05   [8]  45 08 6E 01 69 03 00 00
  can0  0CF11F05   [8]  42 41 1E 00 05 40 00 00
  can0  0CF11E05   [8]  6A 08 86 00 70 03 00 00
  can0  0CF11F05   [8]  42 41 1E 00 05 40 00 00
  can0  0CF11E05   [8]  D0 07 AF 00 70 03 00 00
  can0  0CF11F05   [8]  42 41 1E 00 05 40 00 00
  can0  0CF11E05   [8]  BE 07 F7 00 65 03 00 00
  can0  0CF11F05   [8]  44 41 1E 00 05 40 00 00
  can0  0CF11E05   [8]  71 08 DB 00 6C 03 00 00
  can0  0CF11F05   [8]  49 41 1E 00 05 40 00 00
  can0  0CF11E05   [8]  62 08 9D 00 73 03 00 00
  can0  0CF11F05   [8]  50 41 1E 00 05 40 00 00
  can0  0CF11E05   [8]  F2 07 F5 00 65 03 00 00
  can0  0CF11F05   [8]  5E 41 1E 00 05 40 00 00
  can0  0CF11E05   [8]  57 08 B7 01 59 03 00 00
  can0  0CF11F05   [8]  70 41 1E 00 05 40 00 00
  can0  0CF11E05   [8]  32 09 09 02 4B 03 00 00
  can0  0CF11F05   [8]  7A 41 1E 00 05 40 00 00
  can0  0CF11E05   [8]  17 0A 33 04 3E 03 00 00
  can0  0CF11F05   [8]  82 41 1E 00 05 40 00 00
  can0  0CF11E05   [8]  FE 0B 5E 03 34 03 00 00
  can0  0CF11F05   [8]  88 41 1E 00 05 40 00 00
  can0  0CF11E05   [8]  22 0D 8C 03 46 03 00 00
  can0  0CF11F05   [8]  8D 41 1E 00 05 40 00 00
  can0  0CF11E05   [8]  5D 0E CF 03 44 03 00 00
  can0  0CF11F05   [8]  8F 41 1E 00 05 40 00 00
  can0  0CF11E05   [8]  5C 0F 09 05 61 03 00 00
  can0  0CF11F05   [8]  8F 41 1E 00 05 40 00 00
  can0  0CF11E05   [8]  10 10 4F 07 30 03 00 00
  can0  0CF11F05   [8]  8E 41 1E 00 05 40 00 00
  can0  0CF11E05   [8]  DB 10 B1 01 78 03 00 00
  can0  0CF11F05   [8]  8D 41 1E 00 05 40 00 00
  can0  0CF11E05   [8]  F0 10 90 02 44 03 00 00
  can0  0CF11F05   [8]  8C 41 1E 00 05 40 00 00
  can0  0CF11E05   [8]  60 11 24 06 39 03 00 00
  can0  0CF11F05   [8]  89 41 1E 00 05 40 00 00
  can0  0CF11E05   [8]  94 11 3C 05 8A 03 00 00
  can0  0CF11F05   [8]  87 41 1E 00 05 40 00 00
  can0  0CF11E05   [8]  F2 11 2E 01 61 03 00 00
  can0  0CF11F05   [8]  87 41 1E 00 05 40 00 00
  can0  0CF11E05   [8]  39 11 AB 01 55 03 00 00
  can0  0CF11F05   [8]  84 41 1E 00 05 40 00 00
  can0  0CF11E05   [8]  43 11 87 04 4B 03 00 00
  can0  0CF11F05   [8]  7D 41 1E 00 05 40 00 00
  can0  0CF11E05   [8]  7F 11 74 03 88 03 00 00
  can0  0CF11F05   [8]  76 41 1E 00 05 40 00 00
  can0  0CF11E05   [8]  D9 10 F6 01 61 03 00 00
  can0  0CF11F05   [8]  6D 41 1E 00 05 40 00 00
  can0  0CF11E05   [8]  98 10 73 01 62 03 00 00
  can0  0CF11F05   [8]  60 41 1E 00 05 40 00 00
  can0  0CF11E05   [8]  7B 10 55 01 6F 03 00 00
  can0  0CF11F05   [8]  4C 41 1E 00 05 40 00 00
  can0  0CF11E05   [8]  C2 0F 3E 01 74 03 00 00
  can0  0CF11F05   [8]  3A 41 1E 00 05 40 00 00
  can0  0CF11E05   [8]  4D 0F 11 01 69 03 00 00
  can0  0CF11F05   [8]  2E 41 1E 00 05 40 00 00
  can0  0CF11E05   [8]  EC 0E 0C 01 71 03 00 00
  can0  0CF11F05   [8]  25 41 1E 00 05 40 00 00
  can0  0CF11E05   [8]  65 0E 14 03 7D 03 00 00
  can0  0CF11F05   [8]  20 41 1E 00 05 40 00 00
  can0  0CF11E05   [8]  EB 0D D1 02 80 03 00 00
  can0  0CF11F05   [8]  1C 41 1E 00 05 40 00 00
  can0  0CF11E05   [8]  4C 0D D6 02 78 03 00 00
  can0  0CF11F05   [8]  10 41 1E 00 05 40 00 00
  can0  0CF11E05   [8]  2A 0D 1F 03 70 03 00 00
  can0  0CF11F05   [8]  06 41 1E 00 05 40 00 00
  can0  0CF11E05   [8]  D1 0C 93 00 66 03 00 00
  can0  0CF11F05   [8]  02 41 1E 00 05 40 00 00
  can0  0CF11E05   [8]  71 0C 6F 00 88 03 00 00
  can0  0CF11F05   [8]  02 41 1E 00 05 40 00 00
  can0  0CF11E05   [8]  09 0C 61 02 71 03 00 00
  can0  0CF11F05   [8]  02 41 1E 00 05 40 00 00
  can0  0CF11E05   [8]  DD 0B E2 01 78 03 00 00
  can0  0CF11F05   [8]  02 41 1E 00 05 40 00 00
  can0  0CF11E05   [8]  4D 0B 49 02 75 03 00 00
  can0  0CF11F05   [8]  02 41 1E 00 05 40 00 00
  can0  0CF11E05   [8]  D8 0A F8 01 87 03 00 00
  can0  0CF11F05   [8]  02 41 1E 00 05 40 00 00
  can0  0CF11E05   [8]  8F 0A A5 00 6C 03 00 00
  can0  0CF11F05   [8]  02 41 1E 00 05 40 00 00
  can0  0CF11E05   [8]  44 0A AA 00 5A 03 00 00
  can0  0CF11F05   [8]  02 41 1E 00 05 40 00 00
  can0  0CF11E05   [8]  EE 09 5A 01 65 03 00 00
  can0  0CF11F05   [8]  02 41 1E 00 05 40 00 00
  can0  0CF11E05   [8]  86 09 4A 01 64 03 00 00
  can0  0CF11F05   [8]  02 41 1E 00 05 40 00 00
  can0  0CF11E05   [8]  10 09 ED 00 5D 03 00 00
  can0  0CF11F05   [8]  02 41 1E 00 05 40 00 00
  can0  0CF11E05   [8]  A3 08 DC 00 75 03 00 00
  can0  0CF11F05   [8]  02 41 1E 00 05 40 00 00
  can0  0CF11E05   [8]  B6 07 AB 00 7C 03 00 00
  can0  0CF11F05   [8]  02 41 1E 00 05 40 00 00
  can0  0CF11E05   [8]  6A 07 9E 00 74 03 00 00
  can0  0CF11F05   [8]  02 41 1E 00 05 40 00 00
  can0  0CF11E05   [8]  7F 07 42 00 78 03 00 00
  can0  0CF11F05   [8]  02 41 1E 00 05 40 00 00
  can0  0CF11E05   [8]  90 06 46 00 77 03 00 00
  can0  0CF11F05   [8]  02 41 1E 00 05 40 00 00
  can0  0CF11E05   [8]  95 06 5C 00 7B 03 00 00
  can0  0CF11F05   [8]  02 41 1E 00 05 00 00 00
  can0  0CF11E05   [8]  56 06 51 00 66 03 00 00
  can0  0CF11F05   [8]  02 41 1E 00 05 00 00 00
  can0  0CF11E05   [8]  89 05 EB 00 75 03 00 00
  can0  0CF11F05   [8]  02 41 1E 00 05 00 00 00
  can0  0CF11E05   [8]  1B 05 F4 00 77 03 00 00
  can0  0CF11F05   [8]  02 41 1E 00 05 00 00 00
  can0  0CF11E05   [8]  C0 04 32 00 75 03 00 00
  can0  0CF11F05   [8]  02 41 1E 00 05 00 00 00
  can0  0CF11E05   [8]  97 04 2E 00 75 03 00 00
  can0  0CF11F05   [8]  02 41 1E 00 05 00 00 00
  can0  0CF11E05   [8]  53 04 00 00 71 03 00 00
  can0  0CF11F05   [8]  02 41 1E 00 05 00 00 00
  can0  0CF11E05   [8]  FD 03 00 00 71 03 00 00
  can0  0CF11F05   [8]  02 41 1E 00 05 00 00 00
  can0  0CF11E05   [8]  DE 03 00 00 71 03 00 00
  can0  0CF11F05   [8]  02 41 1E 00 05 00 00 00
  can0  0CF11E05   [8]  DB 03 00 00 71 03 00 00
  can0  0CF11F05   [8]  02 41 1E 00 05 00 00 00
  can0  0CF11E05   [8]  9A 03 00 00 71 03 00 00
  can0  0CF11F05   [8]  02 41 1E 00 05 00 00 00
  can0  0CF11E05   [8]  D3 03 00 00 71 03 00 00
  can0  0CF11F05   [8]  02 41 1E 00 05 00 00 00
  can0  0CF11E05   [8]  B9 03 00 00 71 03 00 00
  can0  0CF11F05   [8]  02 41 1E 00 05 00 00 00
  can0  0CF11E05   [8]  10 03 00 00 71 03 00 00
  can0  0CF11F05   [8]  02 41 1E 00 05 00 00 00
  can0  0CF11E05   [8]  E6 02 00 00 71 03 00 00
  can0  0CF11F05   [8]  02 41 1E 00 05 00 00 00
  can0  0CF11E05   [8]  5C 03 00 00 71 03 00 00
  can0  0CF11F05   [8]  02 41 1E 00 05 00 00 00
  can0  0CF11E05   [8]  AA 02 00 00 73 03 00 00
  can0  0CF11F05   [8]  02 41 1E 00 05 00 00 00
  can0  0CF11E05   [8]  C4 02 00 00 73 03 00 00
  can0  0CF11F05   [8]  02 41 1E 00 05 00 00 00
  can0  0CF11E05   [8]  35 02 00 00 71 03 00 00
  can0  0CF11F05   [8]  02 41 1E 00 05 00 00 00
  can0  0CF11E05   [8]  57 02 00 00 73 03 00 00
  can0  0CF11F05   [8]  02 41 1E 00 05 00 00 00
  can0  0CF11E05   [8]  EC 01 00 00 71 03 00 00
  can0  0CF11F05   [8]  02 41 1E 00 05 00 00 00
  can0  0CF11E05   [8]  4A 02 00 00 71 03 00 00
  can0  0CF11F05   [8]  02 41 1E 00 05 00 00 00
  can0  0CF11E05   [8]  AB 01 00 00 71 03 00 00
  can0  0CF11F05   [8]  02 41 1E 00 05 00 00 00
  can0  0CF11E05   [8]  6F 01 00 00 73 03 00 00
  can0  0CF11F05   [8]  02 41 1E 00 05 00 00 00
  can0  0CF11E05   [8]  91 01 00 00 71 03 00 00
  can0  0CF11F05   [8]  02 41 1E 00 05 00 00 00
  can0  0CF11E05   [8]  24 01 00 00 71 03 00 00
  can0  0CF11F05   [8]  02 41 1E 00 05 00 00 00
  can0  0CF11E05   [8]  FA 00 00 00 71 03 00 00
  can0  0CF11F05   [8]  02 41 1E 00 05 00 00 00
  can0  0CF11E05   [8]  D6 00 00 00 71 03 00 00
  can0  0CF11F05   [8]  02 41 1E 00 05 00 00 00
  can0  0CF11E05   [8]  ED 00 00 00 71 03 00 00
  can0  0CF11F05   [8]  02 41 1E 00 05 00 00 00
  can0  0CF11E05   [8]  95 00 00 00 73 03 00 00
  can0  0CF11F05   [8]  02 41 1E 00 05 00 00 00
  can0  0CF11E05   [8]  5E 00 00 00 73 03 00 00
  can0  0CF11F05   [8]  02 41 1E 00 05 00 00 00
  can0  0CF11E05   [8]  34 00 00 00 73 03 00 00
  can0  0CF11F05   [8]  02 41 1E 00 09 00 00 00
  can0  0CF11E05   [8]  0D 00 00 00 71 03 00 00
  can0  0CF11F05   [8]  02 41 1E 00 09 00 00 00
  can0  0CF11E05   [8]  10 00 00 00 71 03 00 00
  can0  0CF11F05   [8]  02 41 1E 00 01 00 00 00
  can0  0CF11E05   [8]  02 00 00 00 73 03 00 00
  can0  0CF11F05   [8]  02 41 1E 00 05 00 00 00
  can0  0CF11E05   [8]  05 00 00 00 73 03 00 00
  can0  0CF11F05   [8]  02 41 1E 00 09 00 00 00
  can0  0CF11E05   [8]  05 00 00 00 73 03 00 00
  can0  0CF11F05   [8]  02 41 1E 00 01 00 00 00
  can0  0CF11E05   [8]  05 00 00 00 71 03 00 00
  can0  0CF11F05   [8]  02 41 1E 00 01 00 00 00
  can0  0CF11E05   [8]  00 00 00 00 73 03 00 00
  can0  0CF11F05   [8]  02 41 1E 00 01 00 00 00
  can0  0CF11E05   [8]  00 00 00 00 73 03 00 00
  can0  0CF11F05   [8]  02 41 1E 00 01 00 00 00
  can0  0CF11E05   [8]  00 00 00 00 73 03 00 00
  can0  0CF11F05   [8]  02 41 1E 00 09 00 00 00
  can0  0CF11E05   [8]  05 00 00 00 73 03 00 00
  can0  0CF11F05   [8]  02 41 1E 00 05 00 00 00
  can0  0CF11E05   [8]  0A 00 00 00 73 03 00 00
  can0  0CF11F05   [8]  02 41 1E 00 09 00 00 00
  can0  0CF11E05   [8]  00 00 00 00 73 03 00 00
  can0  0CF11F05   [8]  02 41 1E 00 01 00 00 00
  can0  0CF11E05   [8]  05 00 00 00 73 03 00 00
  can0  0CF11F05   [8]  02 41 1E 00 01 00 00 00
  can0  0CF11E05   [8]  05 00 00 00 73 03 00 00
  can0  0CF11F05   [8]  02 41 1E 00 05 00 00 00
  can0  0CF11E05   [8]  00 00 00 00 73 03 00 00
  can0  0CF11F05   [8]  02 41 1E 00 09 00 00 00
  can0  0CF11E05   [8]  08 00 00 00 73 03 00 00
  can0  0CF11F05   [8]  02 41 1E 00 09 00 00 00
  can0  0CF11E05   [8]  02 00 00 00 73 03 00 00
  can0  0CF11F05   [8]  02 41 1E 00 01 00 00 00
  can0  0CF11E05   [8]  0A 00 00 00 73 03 00 00
  can0  0CF11F05   [8]  02 41 1E 00 09 00 00 00
  can0  0CF11E05   [8]  05 00 00 00 73 03 00 00
  can0  0CF11F05   [8]  02 41 1E 00 01 00 00 00
  can0  0CF11E05   [8]  0A 00 00 00 73 03 00 00
  can0  0CF11F05   [8]  02 41 1E 00 05 00 00 00
  can0  0CF11E05   [8]  00 00 00 00 73 03 00 00
  can0  0CF11F05   [8]  02 41 1E 00 01 00 00 00
  can0  0CF11E05   [8]  00 00 00 00 73 03 00 00
  can0  0CF11F05   [8]  02 41 1E 00 05 00 00 00
  can0  0CF11E05   [8]  02 00 00 00 73 03 00 00
  can0  0CF11F05   [8]  02 41 1E 00 09 00 00 00
  can0  0CF11E05   [8]  05 00 00 00 73 03 00 00
  can0  0CF11F05   [8]  02 41 1E 00 01 00 00 00
  can0  0CF11E05   [8]  00 00 00 00 73 03 00 00
  can0  0CF11F05   [8]  02 41 1E 00 05 00 00 00
  can0  0CF11E05   [8]  00 00 00 00 73 03 00 00
  can0  0CF11F05   [8]  02 41 1E 00 01 00 00 00
  can0  0CF11E05   [8]  05 00 00 00 73 03 00 00
  can0  0CF11F05   [8]  02 41 1E 00 01 00 00 00
  can0  0CF11E05   [8]  02 00 00 00 73 03 00 00
